time	V(n003)	V(n006)
0.000000000000000e+000	0.000000e+000	0.000000e+000
1.000000000000000e-006	0.000000e+000	0.000000e+000
1.000017187500000e-006	5.752225e-005	2.643845e-009
1.000051562500000e-006	2.292943e-004	1.264256e-008
1.000066846371846e-006	3.451711e-004	2.137869e-008
1.000086221442898e-006	5.454438e-004	4.034541e-008
1.000107466290581e-006	8.106175e-004	7.117664e-008
1.000128351925056e-006	1.118295e-003	1.146704e-007
1.000153169523429e-006	1.541011e-003	1.866389e-007
1.000181912402564e-006	2.099620e-003	3.011619e-007
1.000217376101253e-006	2.880270e-003	4.947243e-007
1.000259865850608e-006	3.931924e-003	8.125513e-007
1.000312940113710e-006	5.397682e-003	1.357370e-006
1.000378640959985e-006	7.404040e-003	2.285529e-006
1.000462965958090e-006	1.022347e-002	3.931973e-006
1.000572221133891e-006	1.418008e-002	6.901066e-006
1.000719744729569e-006	1.990769e-002	1.254324e-005
1.000925443921228e-006	2.840630e-002	2.381798e-005
1.001229101360603e-006	4.173844e-002	4.815708e-005
1.001674032439411e-006	6.272219e-002	1.025622e-004
1.002423203702587e-006	1.013713e-001	2.459621e-004
1.003496822006712e-006	1.631910e-001	5.736073e-004
1.005044620487702e-006	2.641248e-001	1.328627e-003
1.007137259693008e-006	4.195034e-001	2.953762e-003
1.010046540915462e-006	6.648648e-001	6.525023e-003
1.014025223623370e-006	1.041983e+000	1.412715e-002
1.019289411593681e-006	1.595187e+000	2.958249e-002
1.026495829899154e-006	2.419866e+000	6.072880e-002
1.034308329899154e-006	3.376813e+000	1.077916e-001
1.042320840201691e-006	4.403369e+000	1.678033e-001
1.044187603025371e-006	4.653434e+000	1.852364e-001
1.046321046252433e-006	4.942925e+000	2.065004e-001
1.050000000000000e-006	5.446749e+000	2.448661e-001
1.050367895374757e-006	5.487429e+000	2.489764e-001
1.051103686124270e-006	5.561502e+000	2.572714e-001
1.052575267623297e-006	5.691990e+000	2.741868e-001
1.055518430621351e-006	5.918206e+000	3.089787e-001
1.059567328829897e-006	6.174254e+000	3.586786e-001
1.067379828829896e-006	6.570485e+000	4.584846e-001
1.075192328829896e-006	6.899836e+000	5.619577e-001
1.083004828829896e-006	7.187777e+000	6.688131e-001
1.090817328829896e-006	7.455591e+000	7.784879e-001
1.098629828829896e-006	7.711360e+000	8.906703e-001
1.106442328829896e-006	7.958227e+000	1.005147e+000
1.114254828829896e-006	8.197476e+000	1.121742e+000
1.129879828829896e-006	8.655230e+000	1.360681e+000
1.145504828829896e-006	9.087060e+000	1.606345e+000
1.161129828829896e-006	9.494421e+000	1.857693e+000
1.176754828829896e-006	9.878576e+000	2.113759e+000
1.192379828829896e-006	1.024071e+001	2.373649e+000
1.200192328829896e-006	1.041388e+001	2.504767e+000
1.208004828829896e-006	1.058196e+001	2.636537e+000
1.215817328829896e-006	1.074509e+001	2.768864e+000
1.223629828829896e-006	1.090339e+001	2.901660e+000
1.231442328829896e-006	1.105700e+001	3.034837e+000
1.239254828829896e-006	1.120603e+001	3.168314e+000
1.247067328829896e-006	1.135061e+001	3.302010e+000
1.254879828829896e-006	1.149085e+001	3.435849e+000
1.262692328829896e-006	1.162687e+001	3.569760e+000
1.270504828829896e-006	1.175879e+001	3.703671e+000
1.278317328829896e-006	1.188670e+001	3.837517e+000
1.286129828829896e-006	1.201072e+001	3.971232e+000
1.293942328829896e-006	1.213095e+001	4.104757e+000
1.301754828829896e-006	1.224749e+001	4.238032e+000
1.309567328829896e-006	1.236044e+001	4.371001e+000
1.317379828829896e-006	1.246990e+001	4.503612e+000
1.325192328829896e-006	1.257595e+001	4.635813e+000
1.333004828829896e-006	1.267871e+001	4.767556e+000
1.340817328829896e-006	1.277824e+001	4.898794e+000
1.348629828829896e-006	1.287465e+001	5.029484e+000
1.356442328829896e-006	1.296801e+001	5.159584e+000
1.364254828829896e-006	1.305841e+001	5.289053e+000
1.372067328829896e-006	1.314592e+001	5.417855e+000
1.379879828829896e-006	1.323064e+001	5.545953e+000
1.387692328829896e-006	1.331263e+001	5.673314e+000
1.395504828829896e-006	1.339197e+001	5.799904e+000
1.403317328829896e-006	1.346874e+001	5.925694e+000
1.411129828829896e-006	1.354300e+001	6.050656e+000
1.418942328829896e-006	1.361482e+001	6.174762e+000
1.426754828829895e-006	1.368428e+001	6.297987e+000
1.434567328829895e-006	1.375144e+001	6.420305e+000
1.442379828829895e-006	1.381636e+001	6.541697e+000
1.458004828829895e-006	1.393973e+001	6.781612e+000
1.473629828829895e-006	1.405490e+001	7.017582e+000
1.489254828829895e-006	1.416231e+001	7.249474e+000
1.512692328829895e-006	1.430984e+001	7.589421e+000
1.536129828829895e-006	1.444228e+001	7.919634e+000
1.559567328829895e-006	1.456090e+001	8.239883e+000
1.575192328829895e-006	1.463290e+001	8.447766e+000
1.590817328829895e-006	1.469962e+001	8.651119e+000
1.606442328829895e-006	1.476136e+001	8.849922e+000
1.622067328829895e-006	1.481842e+001	9.044166e+000
1.637692328829895e-006	1.487108e+001	9.233850e+000
1.653317328829895e-006	1.491960e+001	9.418986e+000
1.668942328829895e-006	1.496423e+001	9.599591e+000
1.676754828829895e-006	1.498517e+001	9.688202e+000
1.684567328829895e-006	1.500521e+001	9.775689e+000
1.692379828829895e-006	1.502441e+001	9.862058e+000
1.700192328829895e-006	1.504277e+001	9.947311e+000
1.708004828829895e-006	1.506033e+001	1.003146e+001
1.715817328829895e-006	1.507711e+001	1.011450e+001
1.723629828829895e-006	1.509314e+001	1.019644e+001
1.731442328829895e-006	1.510844e+001	1.027729e+001
1.739254828829895e-006	1.512304e+001	1.035705e+001
1.747067328829895e-006	1.513695e+001	1.043574e+001
1.754879828829895e-006	1.515020e+001	1.051335e+001
1.762692328829895e-006	1.516281e+001	1.058989e+001
1.770504828829895e-006	1.517480e+001	1.066538e+001
1.778317328829895e-006	1.518620e+001	1.073981e+001
1.786129828829894e-006	1.519702e+001	1.081320e+001
1.801754828829894e-006	1.521699e+001	1.095688e+001
1.817379828829894e-006	1.523488e+001	1.109648e+001
1.833004828829894e-006	1.525082e+001	1.123206e+001
1.848629828829894e-006	1.526494e+001	1.136371e+001
1.872067328829894e-006	1.528297e+001	1.155394e+001
1.895504828829894e-006	1.529759e+001	1.173571e+001
1.918942328829894e-006	1.530913e+001	1.190927e+001
1.941263757401323e-006	1.531706e+001	1.206661e+001
1.963585185972753e-006	1.532328e+001	1.221753e+001
1.985906614544182e-006	1.532782e+001	1.236202e+001
2.008228043115611e-006	1.533066e+001	1.250010e+001
2.030549471687040e-006	1.533180e+001	1.263175e+001
2.052870900258469e-006	1.533125e+001	1.275698e+001
2.075192328829898e-006	1.532901e+001	1.287579e+001
2.105326257401327e-006	1.532433e+001	1.302680e+001
2.135460185972757e-006	1.531865e+001	1.316929e+001
2.165594114544186e-006	1.531196e+001	1.330326e+001
2.195728043115615e-006	1.530427e+001	1.342870e+001
2.225861971687045e-006	1.529557e+001	1.354563e+001
2.255995900258474e-006	1.528587e+001	1.365403e+001
2.286129828829903e-006	1.527516e+001	1.375391e+001
2.326308400258476e-006	1.526064e+001	1.387591e+001
2.366486971687048e-006	1.524627e+001	1.398869e+001
2.406665543115620e-006	1.523204e+001	1.409225e+001
2.446844114544193e-006	1.521796e+001	1.418659e+001
2.487022685972765e-006	1.520403e+001	1.427171e+001
2.527201257401338e-006	1.519024e+001	1.434761e+001
2.567379828829910e-006	1.517659e+001	1.441429e+001
2.605326257401340e-006	1.516450e+001	1.447190e+001
2.643272685972769e-006	1.515296e+001	1.452512e+001
2.681219114544199e-006	1.514197e+001	1.457394e+001
2.719165543115628e-006	1.513154e+001	1.461835e+001
2.757111971687057e-006	1.512166e+001	1.465837e+001
2.795058400258487e-006	1.511234e+001	1.469398e+001
2.833004828829917e-006	1.510357e+001	1.472519e+001
2.867603043115631e-006	1.509610e+001	1.475133e+001
2.902201257401347e-006	1.508904e+001	1.477552e+001
2.936799471687062e-006	1.508238e+001	1.479777e+001
2.971397685972777e-006	1.507613e+001	1.481807e+001
3.005995900258492e-006	1.507028e+001	1.483643e+001
3.040594114544207e-006	1.506484e+001	1.485285e+001
3.075192328829922e-006	1.505980e+001	1.486733e+001
3.108674471687066e-006	1.505526e+001	1.488018e+001
3.142156614544210e-006	1.505098e+001	1.489205e+001
3.175638757401354e-006	1.504697e+001	1.490296e+001
3.209120900258497e-006	1.504324e+001	1.491290e+001
3.242603043115641e-006	1.503977e+001	1.492188e+001
3.276085185972785e-006	1.503657e+001	1.492988e+001
3.309567328829928e-006	1.503364e+001	1.493692e+001
3.340817328829929e-006	1.503110e+001	1.494295e+001
3.372067328829930e-006	1.502870e+001	1.494854e+001
3.403317328829930e-006	1.502646e+001	1.495368e+001
3.434567328829931e-006	1.502437e+001	1.495837e+001
3.465817328829932e-006	1.502244e+001	1.496261e+001
3.497067328829933e-006	1.502066e+001	1.496641e+001
3.528317328829933e-006	1.501903e+001	1.496975e+001
3.558451257401363e-006	1.501757e+001	1.497272e+001
3.588585185972792e-006	1.501619e+001	1.497546e+001
3.618719114544222e-006	1.501491e+001	1.497797e+001
3.648853043115650e-006	1.501372e+001	1.498027e+001
3.678986971687080e-006	1.501262e+001	1.498234e+001
3.709120900258509e-006	1.501161e+001	1.498419e+001
3.739254828829939e-006	1.501068e+001	1.498582e+001
3.767156614544225e-006	1.500989e+001	1.498721e+001
3.795058400258511e-006	1.500914e+001	1.498849e+001
3.822960185972797e-006	1.500844e+001	1.498967e+001
3.850861971687084e-006	1.500778e+001	1.499075e+001
3.878763757401371e-006	1.500718e+001	1.499173e+001
3.906665543115657e-006	1.500662e+001	1.499260e+001
3.934567328829943e-006	1.500611e+001	1.499338e+001
3.961353043115658e-006	1.500566e+001	1.499406e+001
3.988138757401372e-006	1.500523e+001	1.499469e+001
4.014924471687088e-006	1.500483e+001	1.499527e+001
4.041710185972803e-006	1.500445e+001	1.499579e+001
4.068495900258518e-006	1.500411e+001	1.499627e+001
4.095281614544232e-006	1.500379e+001	1.499670e+001
4.122067328829947e-006	1.500350e+001	1.499707e+001
4.147736971687091e-006	1.500324e+001	1.499740e+001
4.173406614544234e-006	1.500299e+001	1.499770e+001
4.199076257401378e-006	1.500276e+001	1.499798e+001
4.224745900258522e-006	1.500255e+001	1.499823e+001
4.250415543115665e-006	1.500235e+001	1.499846e+001
4.276085185972808e-006	1.500217e+001	1.499866e+001
4.301754828829952e-006	1.500200e+001	1.499884e+001
4.325192328829952e-006	1.500186e+001	1.499899e+001
4.348629828829953e-006	1.500173e+001	1.499913e+001
4.372067328829954e-006	1.500160e+001	1.499925e+001
4.395504828829954e-006	1.500148e+001	1.499936e+001
4.418942328829955e-006	1.500137e+001	1.499947e+001
4.442379828829955e-006	1.500127e+001	1.499956e+001
4.465817328829956e-006	1.500118e+001	1.499963e+001
4.487022685972814e-006	1.500110e+001	1.499970e+001
4.508228043115671e-006	1.500103e+001	1.499976e+001
4.529433400258529e-006	1.500096e+001	1.499982e+001
4.550638757401386e-006	1.500089e+001	1.499986e+001
4.571844114544244e-006	1.500083e+001	1.499991e+001
4.593049471687102e-006	1.500077e+001	1.499995e+001
4.614254828829959e-006	1.500072e+001	1.499998e+001
4.637692328829960e-006	1.500066e+001	1.500002e+001
4.661129828829961e-006	1.500061e+001	1.500005e+001
4.684567328829961e-006	1.500056e+001	1.500007e+001
4.708004828829962e-006	1.500052e+001	1.500010e+001
4.731442328829962e-006	1.500048e+001	1.500012e+001
4.754879828829963e-006	1.500044e+001	1.500013e+001
4.778317328829963e-006	1.500040e+001	1.500015e+001
4.801754828829964e-006	1.500037e+001	1.500016e+001
4.817379828829964e-006	1.500035e+001	1.500016e+001
4.833004828829965e-006	1.500033e+001	1.500017e+001
4.848629828829965e-006	1.500031e+001	1.500017e+001
4.864254828829965e-006	1.500029e+001	1.500018e+001
4.879879828829966e-006	1.500028e+001	1.500018e+001
4.895504828829966e-006	1.500026e+001	1.500019e+001
4.911129828829967e-006	1.500025e+001	1.500019e+001
4.918942328829967e-006	1.500024e+001	1.500019e+001
4.926754828829967e-006	1.500023e+001	1.500019e+001
4.934567328829967e-006	1.500023e+001	1.500019e+001
4.942379828829967e-006	1.500022e+001	1.500019e+001
4.950192328829968e-006	1.500021e+001	1.500019e+001
4.958004828829968e-006	1.500021e+001	1.500019e+001
4.965817328829968e-006	1.500020e+001	1.500019e+001
4.973629828829968e-006	1.500019e+001	1.500019e+001
4.981442328829968e-006	1.500019e+001	1.500019e+001
4.989254828829969e-006	1.500018e+001	1.500019e+001
4.997067328829969e-006	1.500018e+001	1.500019e+001
5.004879828829969e-006	1.500017e+001	1.500019e+001
5.012692328829969e-006	1.500016e+001	1.500019e+001
5.020504828829969e-006	1.500016e+001	1.500019e+001
5.028317328829969e-006	1.500016e+001	1.500019e+001
5.036129828829970e-006	1.500015e+001	1.500019e+001
5.043942328829970e-006	1.500015e+001	1.500019e+001
5.051754828829970e-006	1.500014e+001	1.500019e+001
5.059567328829970e-006	1.500014e+001	1.500019e+001
5.067379828829970e-006	1.500013e+001	1.500019e+001
5.075192328829971e-006	1.500013e+001	1.500019e+001
5.083004828829971e-006	1.500012e+001	1.500018e+001
5.090817328829971e-006	1.500012e+001	1.500018e+001
5.098629828829971e-006	1.500012e+001	1.500018e+001
5.106442328829971e-006	1.500011e+001	1.500018e+001
5.114254828829972e-006	1.500011e+001	1.500018e+001
5.122067328829972e-006	1.500010e+001	1.500018e+001
5.129879828829972e-006	1.500010e+001	1.500018e+001
5.137692328829972e-006	1.500010e+001	1.500018e+001
5.145504828829972e-006	1.500010e+001	1.500017e+001
5.161129828829973e-006	1.500009e+001	1.500017e+001
5.176754828829973e-006	1.500008e+001	1.500017e+001
5.192379828829973e-006	1.500008e+001	1.500017e+001
5.208004828829974e-006	1.500007e+001	1.500016e+001
5.231442328829974e-006	1.500006e+001	1.500016e+001
5.254879828829975e-006	1.500006e+001	1.500015e+001
5.278317328829976e-006	1.500005e+001	1.500015e+001
5.301754828829976e-006	1.500005e+001	1.500014e+001
5.325192328829977e-006	1.500004e+001	1.500014e+001
5.340817328829977e-006	1.500004e+001	1.500014e+001
5.356442328829977e-006	1.500004e+001	1.500013e+001
5.372067328829978e-006	1.500003e+001	1.500013e+001
5.387692328829978e-006	1.500003e+001	1.500013e+001
5.403317328829979e-006	1.500003e+001	1.500012e+001
5.418942328829979e-006	1.500002e+001	1.500012e+001
5.434567328829979e-006	1.500002e+001	1.500012e+001
5.442379828829980e-006	1.500002e+001	1.500012e+001
5.450192328829980e-006	1.500002e+001	1.500011e+001
5.465817328829980e-006	1.500002e+001	1.500011e+001
5.481442328829980e-006	1.500002e+001	1.500011e+001
5.497067328829981e-006	1.500002e+001	1.500010e+001
5.520504828829981e-006	1.500001e+001	1.500010e+001
5.543942328829982e-006	1.500001e+001	1.500010e+001
5.567379828829983e-006	1.500001e+001	1.500009e+001
5.590817328829983e-006	1.500001e+001	1.500009e+001
5.615370900258556e-006	1.500001e+001	1.500008e+001
5.639924471687127e-006	1.500000e+001	1.500008e+001
5.664478043115699e-006	1.500000e+001	1.500008e+001
5.689031614544271e-006	1.500000e+001	1.500007e+001
5.713585185972843e-006	1.500000e+001	1.500007e+001
5.738138757401416e-006	1.500000e+001	1.500006e+001
5.762692328829987e-006	1.500000e+001	1.500006e+001
5.796174471687131e-006	1.500000e+001	1.500006e+001
5.829656614544274e-006	1.500000e+001	1.500005e+001
5.863138757401418e-006	1.500000e+001	1.500005e+001
5.896620900258562e-006	1.500000e+001	1.500005e+001
5.930103043115706e-006	1.500000e+001	1.500004e+001
5.963585185972849e-006	1.500000e+001	1.500004e+001
5.997067328829993e-006	1.500000e+001	1.500004e+001
6.050000000000001e-006	1.500000e+001	1.500003e+001
6.050017187547185e-006	1.499994e+001	1.500003e+001
6.050051562641555e-006	1.499975e+001	1.500003e+001
6.050084096403341e-006	1.499946e+001	1.500003e+001
6.050113642681167e-006	1.499907e+001	1.500003e+001
6.050168569935137e-006	1.499813e+001	1.500003e+001
6.050219103725820e-006	1.499704e+001	1.500003e+001
6.050298564528753e-006	1.499497e+001	1.500003e+001
6.050386681230147e-006	1.499229e+001	1.500003e+001
6.050528108141193e-006	1.498739e+001	1.500003e+001
6.050707633955132e-006	1.498054e+001	1.500002e+001
6.050930658028641e-006	1.497137e+001	1.500001e+001
6.051223414045663e-006	1.495853e+001	1.499998e+001
6.051654212306071e-006	1.493825e+001	1.499993e+001
6.052389758388656e-006	1.490040e+001	1.499979e+001
6.053478630426954e-006	1.483787e+001	1.499946e+001
6.055013796782200e-006	1.473797e+001	1.499872e+001
6.057122616563944e-006	1.458147e+001	1.499708e+001
6.060087076931646e-006	1.433145e+001	1.499344e+001
6.064042803801908e-006	1.395630e+001	1.498586e+001
6.069342092688138e-006	1.339903e+001	1.497026e+001
6.076525664273449e-006	1.257666e+001	1.493916e+001
6.084338164273450e-006	1.161941e+001	1.489203e+001
6.086122541026587e-006	1.139680e+001	1.488062e+001
6.087906917779725e-006	1.117071e+001	1.486807e+001
6.089691294532862e-006	1.094113e+001	1.485440e+001
6.091475671285999e-006	1.070807e+001	1.483960e+001
6.093260048039136e-006	1.047153e+001	1.482366e+001
6.095044424792273e-006	1.023150e+001	1.480660e+001
6.096828801545411e-006	9.987988e+000	1.478840e+001
6.100000000000000e-006	9.553241e+000	1.475516e+001
6.100317119845459e-006	9.517649e+000	1.475162e+001
6.100951359536377e-006	9.452738e+000	1.474449e+001
6.102219838918213e-006	9.337731e+000	1.472997e+001
6.104756797681885e-006	9.136098e+000	1.470018e+001
6.108415164933621e-006	8.894338e+000	1.465564e+001
6.115731899437093e-006	8.506133e+000	1.456293e+001
6.123544399437093e-006	8.165132e+000	1.446020e+001
6.131356899437094e-006	7.870880e+000	1.435400e+001
6.139169399437094e-006	7.599737e+000	1.424489e+001
6.146981899437094e-006	7.341781e+000	1.413322e+001
6.154794399437094e-006	7.093177e+000	1.401921e+001
6.162606899437094e-006	6.852383e+000	1.390305e+001
6.178231899437095e-006	6.391789e+000	1.366488e+001
6.193856899437095e-006	5.957300e+000	1.341987e+001
6.209481899437095e-006	5.547419e+000	1.316908e+001
6.225106899437096e-006	5.160873e+000	1.291346e+001
6.240731899437096e-006	4.796469e+000	1.265394e+001
6.248544399437096e-006	4.622212e+000	1.252297e+001
6.256356899437097e-006	4.453071e+000	1.239133e+001
6.264169399437097e-006	4.288910e+000	1.225911e+001
6.271981899437097e-006	4.129601e+000	1.212640e+001
6.279794399437097e-006	3.975014e+000	1.199330e+001
6.287606899437097e-006	3.825027e+000	1.185988e+001
6.295419399437097e-006	3.679518e+000	1.172622e+001
6.303231899437098e-006	3.538371e+000	1.159241e+001
6.311044399437098e-006	3.401468e+000	1.145851e+001
6.318856899437098e-006	3.268698e+000	1.132459e+001
6.326669399437098e-006	3.139951e+000	1.119072e+001
6.334481899437098e-006	3.015120e+000	1.105697e+001
6.342294399437099e-006	2.894100e+000	1.092340e+001
6.350106899437099e-006	2.776789e+000	1.079007e+001
6.357919399437099e-006	2.663089e+000	1.065703e+001
6.365731899437099e-006	2.552902e+000	1.052434e+001
6.373544399437099e-006	2.446133e+000	1.039205e+001
6.381356899437100e-006	2.342691e+000	1.026021e+001
6.389169399437100e-006	2.242485e+000	1.012886e+001
6.396981899437100e-006	2.145426e+000	9.998048e+000
6.404794399437100e-006	2.051431e+000	9.867821e+000
6.412606899437100e-006	1.960415e+000	9.738214e+000
6.420419399437101e-006	1.872296e+000	9.609268e+000
6.428231899437101e-006	1.786996e+000	9.481018e+000
6.436044399437101e-006	1.704436e+000	9.353499e+000
6.443856899437101e-006	1.624542e+000	9.226744e+000
6.451669399437101e-006	1.547239e+000	9.100782e+000
6.459481899437101e-006	1.472457e+000	8.975643e+000
6.467294399437102e-006	1.400124e+000	8.851355e+000
6.475106899437102e-006	1.330173e+000	8.727942e+000
6.482919399437102e-006	1.262537e+000	8.605430e+000
6.490731899437102e-006	1.197151e+000	8.483841e+000
6.506356899437103e-006	1.072879e+000	8.243516e+000
6.521981899437103e-006	9.568704e-001	8.007123e+000
6.537606899437103e-006	8.486630e-001	7.774796e+000
6.553231899437104e-006	7.478176e-001	7.546649e+000
6.568856899437104e-006	6.539178e-001	7.322779e+000
6.584481899437105e-006	5.665678e-001	7.103268e+000
6.600106899437105e-006	4.853924e-001	6.888180e+000
6.615731899437105e-006	4.100354e-001	6.677567e+000
6.631356899437106e-006	3.401590e-001	6.471468e+000
6.646981899437106e-006	2.754428e-001	6.269908e+000
6.662606899437106e-006	2.155831e-001	6.072904e+000
6.670419399437107e-006	1.873839e-001	5.976111e+000
