time	V(n003)	V(n006)
0.000000000000000e+000	0.000000e+000	0.000000e+000
1.000000000000000e-006	0.000000e+000	0.000000e+000
1.000017187500000e-006	1.912368e-005	2.662522e-009
1.000051562500000e-006	7.632814e-005	1.273927e-008
1.000066825750158e-006	1.149626e-004	2.154244e-008
1.000086197172259e-006	1.819930e-004	4.069849e-008
1.000107395146204e-006	2.708081e-004	7.180259e-008
1.000128148969556e-006	3.737633e-004	1.155597e-007
1.000152879066111e-006	5.161024e-004	1.882559e-007
1.000181397886038e-006	7.041603e-004	3.036220e-007
1.000216578360962e-006	9.682148e-004	4.989202e-007
1.000258542088153e-006	1.324472e-003	8.188321e-007
1.000310827703824e-006	1.823379e-003	1.367095e-006
1.000375160459875e-006	2.508263e-003	2.297813e-006
1.000457201313715e-006	3.475215e-003	3.942546e-006
1.000562334448037e-006	4.835947e-003	6.883267e-006
1.000702144384277e-006	6.809101e-003	1.239478e-005
1.000892289015146e-006	9.723187e-003	2.312169e-005
1.001162287467910e-006	1.422598e-002	4.539365e-005
1.001556329084056e-006	2.145227e-002	9.418092e-005
1.002138047881212e-006	3.338340e-002	2.048082e-004
1.002967068462413e-006	5.273192e-002	4.505977e-004
1.004109349316407e-006	8.344933e-002	9.825756e-004
1.005666640535104e-006	1.319392e-001	2.122531e-003
1.007772238854248e-006	2.077519e-001	4.542619e-003
1.010662455645751e-006	3.274368e-001	9.755560e-003
1.014695393606895e-006	5.180774e-001	2.114278e-002
1.020317440046870e-006	8.196017e-001	4.587143e-002
1.028129940046869e-006	1.289653e+000	9.682339e-002
1.035942440046869e-006	1.808787e+000	1.670439e-001
1.042187500000000e-006	2.263275e+000	2.408662e-001
1.050000000000000e-006	2.867287e+000	3.501392e-001
1.050781250000000e-006	2.920601e+000	3.630915e-001
1.052343750000000e-006	3.019569e+000	3.895237e-001
1.055468750000000e-006	3.195219e+000	4.446064e-001
1.061718750000000e-006	3.505475e+000	5.603941e-001
1.067790451186536e-006	3.777707e+000	6.790288e-001
1.075602951186536e-006	4.105809e+000	8.398218e-001
1.083415451186536e-006	4.424870e+000	1.008129e+000
1.091227951186536e-006	4.739104e+000	1.183724e+000
1.106852951186536e-006	5.358154e+000	1.554630e+000
1.122477951186536e-006	5.964972e+000	1.948732e+000
1.138102951186536e-006	6.558367e+000	2.362581e+000
1.153727951186536e-006	7.137094e+000	2.792934e+000
1.169352951186536e-006	7.700049e+000	3.236750e+000
1.184977951186536e-006	8.246283e+000	3.691180e+000
1.192790451186536e-006	8.512870e+000	3.921536e+000
1.200602951186536e-006	8.774984e+000	4.153563e+000
1.208415451186536e-006	9.032547e+000	4.386956e+000
1.216227951186536e-006	9.285484e+000	4.621423e+000
1.224040451186536e-006	9.533731e+000	4.856682e+000
1.231852951186536e-006	9.777233e+000	5.092463e+000
1.239665451186536e-006	1.001594e+001	5.328506e+000
1.247477951186536e-006	1.024981e+001	5.564560e+000
1.255290451186536e-006	1.047880e+001	5.800386e+000
1.263102951186536e-006	1.070288e+001	6.035758e+000
1.270915451186536e-006	1.092204e+001	6.270452e+000
1.278727951186536e-006	1.113625e+001	6.504263e+000
1.286540451186536e-006	1.134550e+001	6.736989e+000
1.294352951186536e-006	1.154979e+001	6.968439e+000
1.302165451186535e-006	1.174912e+001	7.198432e+000
1.309977951186535e-006	1.194348e+001	7.426797e+000
1.317790451186535e-006	1.213288e+001	7.653370e+000
1.325602951186535e-006	1.231735e+001	7.877995e+000
1.333415451186535e-006	1.249690e+001	8.100526e+000
1.341227951186535e-006	1.267155e+001	8.320825e+000
1.349040451186535e-006	1.284132e+001	8.538761e+000
1.356852951186535e-006	1.300625e+001	8.754211e+000
1.364665451186535e-006	1.316637e+001	8.967062e+000
1.372477951186535e-006	1.332172e+001	9.177204e+000
1.388102951186535e-006	1.361826e+001	9.588969e+000
1.403727951186535e-006	1.389623e+001	9.988787e+000
1.419352951186535e-006	1.415605e+001	1.037604e+001
1.434977951186535e-006	1.439814e+001	1.075022e+001
1.458415451186535e-006	1.472911e+001	1.128606e+001
1.474040451186535e-006	1.492906e+001	1.162589e+001
1.489665451186535e-006	1.511308e+001	1.195153e+001
1.505290451186535e-006	1.528174e+001	1.226285e+001
1.520915451186535e-006	1.543561e+001	1.255977e+001
1.528727951186535e-006	1.550718e+001	1.270283e+001
1.536540451186535e-006	1.557527e+001	1.284229e+001
1.544352951186535e-006	1.563997e+001	1.297816e+001
1.552165451186535e-006	1.570134e+001	1.311045e+001
1.559977951186535e-006	1.575947e+001	1.323917e+001
1.567790451186535e-006	1.581441e+001	1.336436e+001
1.575602951186535e-006	1.586627e+001	1.348601e+001
1.583415451186535e-006	1.591509e+001	1.360416e+001
1.591227951186535e-006	1.596098e+001	1.371883e+001
1.599040451186535e-006	1.600399e+001	1.383005e+001
1.606852951186535e-006	1.604420e+001	1.393785e+001
1.614665451186535e-006	1.608170e+001	1.404226e+001
1.622477951186535e-006	1.611655e+001	1.414332e+001
1.630290451186535e-006	1.614883e+001	1.424107e+001
1.638102951186535e-006	1.617861e+001	1.433553e+001
1.645915451186535e-006	1.620596e+001	1.442676e+001
1.661540451186534e-006	1.625369e+001	1.459967e+001
1.677165451186534e-006	1.629258e+001	1.476015e+001
1.692790451186534e-006	1.632320e+001	1.490858e+001
1.708415451186534e-006	1.634610e+001	1.504533e+001
1.731852951186534e-006	1.636713e+001	1.522946e+001
1.755290451186534e-006	1.637373e+001	1.538966e+001
1.778727951186534e-006	1.636756e+001	1.552739e+001
1.802165451186534e-006	1.635019e+001	1.564410e+001
1.825602951186534e-006	1.632311e+001	1.574130e+001
1.849040451186534e-006	1.628771e+001	1.582046e+001
1.864665451186534e-006	1.626013e+001	1.586392e+001
1.880290451186534e-006	1.622980e+001	1.590044e+001
1.895915451186534e-006	1.619706e+001	1.593044e+001
1.911540451186534e-006	1.616223e+001	1.595432e+001
1.919352951186534e-006	1.614413e+001	1.596409e+001
1.927165451186534e-006	1.612562e+001	1.597248e+001
1.934977951186534e-006	1.610674e+001	1.597954e+001
1.942790451186535e-006	1.608752e+001	1.598532e+001
1.950602951186535e-006	1.606800e+001	1.598986e+001
1.958415451186535e-006	1.604820e+001	1.599321e+001
1.966227951186535e-006	1.602816e+001	1.599542e+001
1.974040451186535e-006	1.600792e+001	1.599653e+001
1.981852951186535e-006	1.598749e+001	1.599659e+001
1.989665451186536e-006	1.596691e+001	1.599564e+001
1.997477951186536e-006	1.594620e+001	1.599372e+001
2.005290451186536e-006	1.592539e+001	1.599087e+001
2.013102951186536e-006	1.590451e+001	1.598714e+001
2.020915451186536e-006	1.588358e+001	1.598257e+001
2.028727951186537e-006	1.586262e+001	1.597719e+001
2.036540451186537e-006	1.584165e+001	1.597104e+001
2.044352951186537e-006	1.582070e+001	1.596417e+001
2.052165451186537e-006	1.579979e+001	1.595661e+001
2.059977951186537e-006	1.577894e+001	1.594839e+001
2.067790451186538e-006	1.575816e+001	1.593956e+001
2.075602951186538e-006	1.573747e+001	1.593013e+001
2.083415451186538e-006	1.571690e+001	1.592016e+001
2.091227951186538e-006	1.569645e+001	1.590967e+001
2.099040451186538e-006	1.567614e+001	1.589870e+001
2.106852951186539e-006	1.565599e+001	1.588727e+001
2.122477951186539e-006	1.561621e+001	1.586316e+001
2.138102951186539e-006	1.557722e+001	1.583760e+001
2.153727951186540e-006	1.553910e+001	1.581078e+001
2.169352951186540e-006	1.550194e+001	1.578293e+001
2.184977951186540e-006	1.546580e+001	1.575424e+001
2.200602951186541e-006	1.543075e+001	1.572488e+001
2.208415451186541e-006	1.541364e+001	1.571001e+001
2.216227951186541e-006	1.539683e+001	1.569504e+001
2.224040451186541e-006	1.538031e+001	1.567998e+001
2.231852951186542e-006	1.536409e+001	1.566486e+001
2.239665451186542e-006	1.534817e+001	1.564969e+001
2.247477951186542e-006	1.533256e+001	1.563449e+001
2.255290451186542e-006	1.531726e+001	1.561928e+001
2.263102951186542e-006	1.530227e+001	1.560407e+001
2.270915451186543e-006	1.528759e+001	1.558888e+001
2.278727951186543e-006	1.527324e+001	1.557373e+001
2.286540451186543e-006	1.525920e+001	1.555862e+001
2.294352951186543e-006	1.524548e+001	1.554357e+001
2.302165451186543e-006	1.523207e+001	1.552859e+001
2.309977951186543e-006	1.521899e+001	1.551370e+001
2.317790451186544e-006	1.520623e+001	1.549891e+001
2.325602951186544e-006	1.519379e+001	1.548422e+001
2.333415451186544e-006	1.518167e+001	1.546966e+001
2.341227951186544e-006	1.516986e+001	1.545522e+001
2.349040451186544e-006	1.515838e+001	1.544091e+001
2.356852951186545e-006	1.514720e+001	1.542676e+001
2.364665451186545e-006	1.513634e+001	1.541275e+001
2.372477951186545e-006	1.512580e+001	1.539891e+001
2.380290451186545e-006	1.511556e+001	1.538524e+001
2.395915451186546e-006	1.509600e+001	1.535844e+001
2.411540451186546e-006	1.507765e+001	1.533238e+001
2.427165451186546e-006	1.506047e+001	1.530713e+001
2.442790451186547e-006	1.504445e+001	1.528270e+001
2.458415451186547e-006	1.502956e+001	1.525913e+001
2.481852951186548e-006	1.500924e+001	1.522545e+001
2.497477951186548e-006	1.499701e+001	1.520412e+001
2.513102951186548e-006	1.498578e+001	1.518372e+001
2.528727951186549e-006	1.497551e+001	1.516424e+001
2.544352951186549e-006	1.496618e+001	1.514569e+001
2.552165451186549e-006	1.496185e+001	1.513677e+001
2.559977951186550e-006	1.495773e+001	1.512807e+001
2.567790451186550e-006	1.495383e+001	1.511961e+001
2.575602951186550e-006	1.495014e+001	1.511137e+001
2.583415451186550e-006	1.494665e+001	1.510336e+001
2.591227951186550e-006	1.494336e+001	1.509558e+001
2.599040451186550e-006	1.494026e+001	1.508803e+001
2.606852951186551e-006	1.493735e+001	1.508070e+001
2.614665451186551e-006	1.493463e+001	1.507359e+001
2.622477951186551e-006	1.493208e+001	1.506670e+001
2.630290451186551e-006	1.492971e+001	1.506002e+001
2.638102951186551e-006	1.492751e+001	1.505357e+001
2.653727951186552e-006	1.492359e+001	1.504129e+001
2.669352951186552e-006	1.492030e+001	1.502985e+001
2.684977951186553e-006	1.491758e+001	1.501921e+001
2.700602951186553e-006	1.491541e+001	1.500936e+001
2.724040451186554e-006	1.491311e+001	1.499601e+001
2.747477951186554e-006	1.491184e+001	1.498428e+001
2.770915451186555e-006	1.491149e+001	1.497408e+001
2.794352951186555e-006	1.491195e+001	1.496533e+001
2.817790451186556e-006	1.491313e+001	1.495792e+001
2.841227951186556e-006	1.491492e+001	1.495176e+001
2.864665451186557e-006	1.491724e+001	1.494675e+001
2.880290451186557e-006	1.491905e+001	1.494401e+001
2.895915451186558e-006	1.492102e+001	1.494171e+001
2.911540451186558e-006	1.492315e+001	1.493983e+001
2.927165451186558e-006	1.492541e+001	1.493834e+001
2.934977951186559e-006	1.492658e+001	1.493773e+001
2.942790451186559e-006	1.492778e+001	1.493721e+001
2.950602951186559e-006	1.492900e+001	1.493678e+001
2.958415451186559e-006	1.493025e+001	1.493643e+001
2.966227951186559e-006	1.493151e+001	1.493616e+001
2.974040451186560e-006	1.493279e+001	1.493596e+001
2.981852951186560e-006	1.493408e+001	1.493584e+001
2.989665451186560e-006	1.493539e+001	1.493578e+001
2.997477951186560e-006	1.493671e+001	1.493580e+001
3.005290451186560e-006	1.493804e+001	1.493587e+001
3.013102951186561e-006	1.493937e+001	1.493601e+001
3.020915451186561e-006	1.494072e+001	1.493621e+001
3.028727951186561e-006	1.494206e+001	1.493647e+001
3.036540451186561e-006	1.494341e+001	1.493677e+001
3.044352951186561e-006	1.494476e+001	1.493713e+001
3.052165451186562e-006	1.494612e+001	1.493754e+001
3.059977951186562e-006	1.494746e+001	1.493800e+001
3.067790451186562e-006	1.494881e+001	1.493849e+001
3.075602951186562e-006	1.495015e+001	1.493903e+001
3.083415451186562e-006	1.495149e+001	1.493961e+001
3.091227951186562e-006	1.495282e+001	1.494023e+001
3.099040451186563e-006	1.495415e+001	1.494088e+001
3.106852951186563e-006	1.495546e+001	1.494156e+001
3.114665451186563e-006	1.495677e+001	1.494228e+001
3.122477951186563e-006	1.495806e+001	1.494302e+001
3.138102951186564e-006	1.496062e+001	1.494459e+001
3.153727951186564e-006	1.496313e+001	1.494625e+001
3.169352951186564e-006	1.496557e+001	1.494798e+001
3.184977951186565e-006	1.496796e+001	1.494979e+001
3.200602951186565e-006	1.497028e+001	1.495164e+001
3.208415451186565e-006	1.497141e+001	1.495259e+001
3.216227951186565e-006	1.497253e+001	1.495354e+001
3.224040451186566e-006	1.497363e+001	1.495450e+001
3.231852951186566e-006	1.497470e+001	1.495546e+001
3.239665451186566e-006	1.497576e+001	1.495644e+001
3.247477951186566e-006	1.497680e+001	1.495741e+001
3.255290451186566e-006	1.497783e+001	1.495839e+001
3.263102951186567e-006	1.497883e+001	1.495937e+001
3.270915451186567e-006	1.497981e+001	1.496035e+001
3.278727951186567e-006	1.498077e+001	1.496133e+001
3.286540451186567e-006	1.498171e+001	1.496231e+001
3.294352951186567e-006	1.498263e+001	1.496328e+001
3.302165451186568e-006	1.498353e+001	1.496425e+001
3.309977951186568e-006	1.498441e+001	1.496522e+001
3.317790451186568e-006	1.498526e+001	1.496619e+001
3.325602951186568e-006	1.498610e+001	1.496714e+001
3.333415451186568e-006	1.498692e+001	1.496810e+001
3.341227951186569e-006	1.498771e+001	1.496904e+001
3.349040451186569e-006	1.498849e+001	1.496998e+001
3.356852951186569e-006	1.498925e+001	1.497091e+001
3.364665451186569e-006	1.498998e+001	1.497182e+001
3.372477951186569e-006	1.499070e+001	1.497273e+001
3.380290451186569e-006	1.499139e+001	1.497363e+001
3.388102951186570e-006	1.499207e+001	1.497452e+001
3.395915451186570e-006	1.499272e+001	1.497540e+001
3.411540451186570e-006	1.499397e+001	1.497712e+001
3.427165451186571e-006	1.499514e+001	1.497879e+001
3.442790451186571e-006	1.499624e+001	1.498042e+001
3.458415451186571e-006	1.499726e+001	1.498198e+001
3.481852951186572e-006	1.499866e+001	1.498423e+001
3.505290451186573e-006	1.499991e+001	1.498634e+001
3.528727951186573e-006	1.500100e+001	1.498833e+001
3.552165451186574e-006	1.500196e+001	1.499017e+001
3.575602951186574e-006	1.500279e+001	1.499189e+001
3.599040451186575e-006	1.500349e+001	1.499347e+001
3.622477951186575e-006	1.500408e+001	1.499492e+001
3.644799379758005e-006	1.500453e+001	1.499617e+001
3.667120808329434e-006	1.500490e+001	1.499732e+001
3.689442236900863e-006	1.500521e+001	1.499836e+001
3.711763665472292e-006	1.500544e+001	1.499930e+001
3.734085094043721e-006	1.500560e+001	1.500014e+001
3.756406522615150e-006	1.500569e+001	1.500088e+001
3.778727951186579e-006	1.500570e+001	1.500152e+001
3.802165451186580e-006	1.500567e+001	1.500209e+001
3.825602951186580e-006	1.500561e+001	1.500259e+001
3.849040451186580e-006	1.500551e+001	1.500301e+001
3.872477951186581e-006	1.500538e+001	1.500336e+001
3.895915451186582e-006	1.500521e+001	1.500364e+001
3.919352951186582e-006	1.500502e+001	1.500385e+001
3.942790451186583e-006	1.500479e+001	1.500398e+001
3.950602951186583e-006	1.500471e+001	1.500402e+001
3.958415451186583e-006	1.500463e+001	1.500405e+001
3.966227951186583e-006	1.500455e+001	1.500408e+001
3.974040451186583e-006	1.500447e+001	1.500410e+001
3.981852951186584e-006	1.500439e+001	1.500412e+001
3.989665451186584e-006	1.500431e+001	1.500413e+001
3.997477951186584e-006	1.500423e+001	1.500414e+001
4.005290451186584e-006	1.500414e+001	1.500414e+001
4.013102951186584e-006	1.500406e+001	1.500414e+001
4.020915451186585e-006	1.500397e+001	1.500413e+001
4.028727951186585e-006	1.500388e+001	1.500412e+001
4.036540451186585e-006	1.500380e+001	1.500411e+001
4.044352951186585e-006	1.500371e+001	1.500409e+001
4.052165451186585e-006	1.500362e+001	1.500407e+001
4.059977951186586e-006	1.500354e+001	1.500404e+001
4.067790451186586e-006	1.500345e+001	1.500402e+001
4.075602951186586e-006	1.500336e+001	1.500399e+001
4.083415451186586e-006	1.500328e+001	1.500395e+001
4.091227951186586e-006	1.500319e+001	1.500392e+001
4.099040451186587e-006	1.500310e+001	1.500388e+001
4.106852951186587e-006	1.500302e+001	1.500384e+001
4.114665451186587e-006	1.500293e+001	1.500380e+001
4.122477951186587e-006	1.500285e+001	1.500375e+001
4.130290451186587e-006	1.500276e+001	1.500371e+001
4.138102951186587e-006	1.500268e+001	1.500366e+001
4.153727951186588e-006	1.500252e+001	1.500356e+001
4.169352951186588e-006	1.500236e+001	1.500345e+001
4.184977951186589e-006	1.500220e+001	1.500334e+001
4.200602951186589e-006	1.500204e+001	1.500322e+001
4.216227951186589e-006	1.500190e+001	1.500310e+001
4.231852951186590e-006	1.500175e+001	1.500298e+001
4.247477951186590e-006	1.500161e+001	1.500285e+001
4.255290451186590e-006	1.500154e+001	1.500279e+001
4.263102951186591e-006	1.500148e+001	1.500273e+001
4.270915451186591e-006	1.500141e+001	1.500267e+001
4.278727951186591e-006	1.500135e+001	1.500260e+001
4.286540451186591e-006	1.500129e+001	1.500254e+001
4.294352951186591e-006	1.500122e+001	1.500248e+001
4.302165451186591e-006	1.500116e+001	1.500241e+001
4.309977951186592e-006	1.500110e+001	1.500235e+001
4.317790451186592e-006	1.500105e+001	1.500229e+001
4.325602951186592e-006	1.500099e+001	1.500222e+001
4.333415451186592e-006	1.500094e+001	1.500216e+001
4.341227951186592e-006	1.500088e+001	1.500210e+001
4.349040451186593e-006	1.500083e+001	1.500204e+001
4.356852951186593e-006	1.500078e+001	1.500198e+001
4.364665451186593e-006	1.500073e+001	1.500192e+001
4.372477951186593e-006	1.500068e+001	1.500186e+001
4.380290451186593e-006	1.500063e+001	1.500180e+001
4.388102951186594e-006	1.500059e+001	1.500174e+001
4.395915451186594e-006	1.500054e+001	1.500168e+001
4.403727951186594e-006	1.500050e+001	1.500163e+001
4.411540451186594e-006	1.500046e+001	1.500157e+001
4.427165451186594e-006	1.500038e+001	1.500146e+001
4.442790451186595e-006	1.500030e+001	1.500135e+001
4.458415451186595e-006	1.500023e+001	1.500125e+001
4.474040451186596e-006	1.500017e+001	1.500115e+001
4.497477951186596e-006	1.500008e+001	1.500100e+001
4.520915451186597e-006	1.500000e+001	1.500087e+001
4.544352951186597e-006	1.499993e+001	1.500074e+001
4.567790451186598e-006	1.499987e+001	1.500062e+001
4.591227951186598e-006	1.499982e+001	1.500051e+001
4.612433308329456e-006	1.499978e+001	1.500042e+001
4.633638665472314e-006	1.499974e+001	1.500034e+001
4.654844022615172e-006	1.499971e+001	1.500026e+001
4.676049379758029e-006	1.499969e+001	1.500019e+001
4.697254736900887e-006	1.499967e+001	1.500012e+001
4.718460094043744e-006	1.499965e+001	1.500006e+001
4.739665451186602e-006	1.499964e+001	1.500001e+001
4.763102951186603e-006	1.499964e+001	1.499996e+001
4.786540451186603e-006	1.499963e+001	1.499991e+001
4.809977951186604e-006	1.499963e+001	1.499987e+001
4.833415451186604e-006	1.499964e+001	1.499984e+001
4.856852951186605e-006	1.499964e+001	1.499981e+001
4.880290451186606e-006	1.499965e+001	1.499979e+001
4.903727951186606e-006	1.499966e+001	1.499977e+001
4.919352951186606e-006	1.499967e+001	1.499976e+001
4.934977951186607e-006	1.499968e+001	1.499975e+001
4.950602951186607e-006	1.499969e+001	1.499975e+001
4.958415451186607e-006	1.499969e+001	1.499974e+001
4.966227951186608e-006	1.499970e+001	1.499974e+001
4.974040451186608e-006	1.499970e+001	1.499974e+001
4.981852951186608e-006	1.499971e+001	1.499974e+001
4.989665451186608e-006	1.499971e+001	1.499974e+001
4.997477951186608e-006	1.499972e+001	1.499973e+001
5.005290451186609e-006	1.499972e+001	1.499973e+001
5.013102951186609e-006	1.499973e+001	1.499973e+001
5.020915451186609e-006	1.499973e+001	1.499973e+001
5.028727951186609e-006	1.499974e+001	1.499973e+001
5.036540451186609e-006	1.499975e+001	1.499973e+001
5.044352951186610e-006	1.499975e+001	1.499973e+001
5.052165451186610e-006	1.499976e+001	1.499974e+001
5.059977951186610e-006	1.499976e+001	1.499974e+001
5.067790451186610e-006	1.499977e+001	1.499974e+001
5.075602951186610e-006	1.499977e+001	1.499974e+001
5.083415451186610e-006	1.499978e+001	1.499974e+001
5.091227951186611e-006	1.499978e+001	1.499974e+001
5.099040451186611e-006	1.499979e+001	1.499975e+001
5.106852951186611e-006	1.499980e+001	1.499975e+001
5.114665451186611e-006	1.499980e+001	1.499975e+001
5.122477951186611e-006	1.499981e+001	1.499975e+001
5.130290451186612e-006	1.499981e+001	1.499976e+001
5.138102951186612e-006	1.499982e+001	1.499976e+001
5.145915451186612e-006	1.499982e+001	1.499976e+001
